! Fichier Touchstone S11
# GHz S DB R 50
2.000000	-2.787507e-01	-20.4279
2.010000	-2.866081e-01	-21.655
2.020000	-2.949255e-01	-22.8925
2.030000	-3.037498e-01	-24.1415
2.040000	-3.131338e-01	-25.4028
2.050000	-3.231371e-01	-26.6777
2.060000	-3.338276e-01	-27.9673
2.070000	-3.452830e-01	-29.2731
2.080000	-3.575919e-01	-30.5967
2.090000	-3.708564e-01	-31.9397
2.100000	-3.851945e-01	-33.3042
2.110000	-4.007432e-01	-34.6923
2.120000	-4.176621e-01	-36.1067
2.130000	-4.361384e-01	-37.5503
2.140000	-4.563930e-01	-39.0262
2.150000	-4.786873e-01	-40.5384
2.160000	-5.033334e-01	-42.0912
2.170000	-5.307057e-01	-43.6896
2.180000	-5.612569e-01	-45.3396
2.190000	-5.955380e-01	-47.048
2.200000	-6.342252e-01	-48.823
2.210000	-6.781555e-01	-50.6742
2.220000	-7.283740e-01	-52.6131
2.230000	-7.861990e-01	-54.6534
2.240000	-8.533108e-01	-56.8116
2.250000	-9.318760e-01	-59.1077
2.260000	-1.024723e+00	-61.5664
2.270000	-1.135597e+00	-64.2177
2.280000	-1.269524e+00	-67.0987
2.290000	-1.433368e+00	-70.2557
2.300000	-1.636664e+00	-73.7456
2.310000	-1.892915e+00	-77.6395
2.320000	-2.221657e+00	-82.0238
2.330000	-2.651837e+00	-87.0025
2.340000	-3.227537e+00	-92.6943
2.350000	-4.018154e+00	-99.2226
2.360000	-5.137930e+00	-106.69
2.370000	-6.788493e+00	-115.123
2.380000	-9.374121e+00	-124.352
2.390000	-1.395937e+01	-132.552
2.400000	-2.695799e+01	33.5263
2.410000	-1.866861e+01	23.869
2.420000	-1.133922e+01	14.4561
2.430000	-7.781646e+00	5.88691
2.440000	-5.630482e+00	-1.70116
2.450000	-4.222560e+00	-8.33461
2.460000	-3.260319e+00	-14.1145
2.470000	-2.582085e+00	-19.165
2.480000	-2.091751e+00	-23.6067
2.490000	-1.729317e+00	-27.5457
2.500000	-1.456082e+00	-31.0708
2.510000	-1.246432e+00	-34.2547
2.520000	-1.083019e+00	-37.1559
2.530000	-9.538524e-01	-39.8218
2.540000	-8.504791e-01	-42.2905
2.550000	-7.668351e-01	-44.5929
2.560000	-6.984964e-01	-46.7542
2.570000	-6.421856e-01	-48.7948
2.580000	-5.954404e-01	-50.7318
2.590000	-5.563859e-01	-52.5792
2.600000	-5.235778e-01	-54.3487
2.610000	-4.958903e-01	-56.0502
2.620000	-4.724372e-01	-57.692
2.630000	-4.525142e-01	-59.2811
2.640000	-4.355562e-01	-60.8236
2.650000	-4.211064e-01	-62.3247
2.660000	-4.087928e-01	-63.789
2.670000	-3.983098e-01	-65.2203
2.680000	-3.894054e-01	-66.622
2.690000	-3.818698e-01	-67.9971
2.700000	-3.755281e-01	-69.3483
2.710000	-3.702330e-01	-70.6778
2.720000	-3.658604e-01	-71.9878
2.730000	-3.623049e-01	-73.2801
2.740000	-3.594769e-01	-74.5563
2.750000	-3.572996e-01	-75.8179
2.760000	-3.557075e-01	-77.0664
2.770000	-3.546438e-01	-78.3027
2.780000	-3.540599e-01	-79.5282
2.790000	-3.539134e-01	-80.7437
2.800000	-3.541678e-01	-81.9503
2.810000	-3.547912e-01	-83.1487
2.820000	-3.557561e-01	-84.3397
2.830000	-3.570384e-01	-85.524
2.840000	-3.586170e-01	-86.7024
2.850000	-3.604737e-01	-87.8754
2.860000	-3.625925e-01	-89.0436
2.870000	-3.649596e-01	-90.2075
2.880000	-3.675628e-01	-91.3677
2.890000	-3.703918e-01	-92.5246
2.900000	-3.734374e-01	-93.6788
2.910000	-3.766917e-01	-94.8305
2.920000	-3.801482e-01	-95.9803
2.930000	-3.838010e-01	-97.1285
2.940000	-3.876454e-01	-98.2755
2.950000	-3.916773e-01	-99.4217
2.960000	-3.958934e-01	-100.567
2.970000	-4.002911e-01	-101.713
2.980000	-4.048682e-01	-102.859
2.990000	-4.096232e-01	-104.005
